
T3BF0 000:549 SEGGER J-Link V4.90 Log File (0001ms, 0270ms total)
T3BF0 000:549 DLL Compiled: Jul 28 2014 10:35:20 (0001ms, 0270ms total)
T3BF0 000:549 Logging started @ 2016-04-29 23:29 (0001ms, 0270ms total)
T3BF0 000:550 JLINK_SetWarnOutHandler(...) (0000ms, 0270ms total)
T3BF0 000:550 JLINK_OpenEx(...)
Firmware: J-Link ARM V8 compiled Jul 17 2014 12:31:18
Hardware: V8.00
S/N: 555884801
Feature(s): RDI,FlashDL,FlashBP,JFlash,GDBFULL  returns O.K. (0266ms, 0536ms total)
T3BF0 000:816 JLINK_SetErrorOutHandler(...) (0000ms, 0536ms total)
T3BF0 000:816 JLINK_ExecCommand("ProjectFile = "E:\robocon\Git\car_a\USER\JLinkSettings.ini"", ...)  returns 0x00 (0002ms, 0538ms total)
T3BF0 000:828 JLINK_ExecCommand("Device = STM32F407ZG", ...)Device "STM32F407ZG" selected (1024 KB flash, 128 KB RAM).  returns 0x00 (0025ms, 0563ms total)
T3BF0 000:853 JLINK_ExecCommand("DisableConnectionTimeout", ...)  returns 0x01 (0000ms, 0563ms total)
T3BF0 000:853 JLINK_GetHardwareVersion()  returns 0x13880 (0000ms, 0563ms total)
T3BF0 000:853 JLINK_GetDLLVersion()  returns 49000 (0000ms, 0563ms total)
T3BF0 000:853 JLINK_GetFirmwareString(...) (0000ms, 0563ms total)
T3BF0 000:880 JLINK_GetDLLVersion()  returns 49000 (0000ms, 0563ms total)
T3BF0 000:880 JLINK_GetCompileDateTime() (0000ms, 0563ms total)
T3BF0 000:889 JLINK_GetFirmwareString(...) (0000ms, 0563ms total)
T3BF0 000:896 JLINK_GetHardwareVersion()  returns 0x13880 (0000ms, 0563ms total)
T3BF0 000:929 JLINK_TIF_Select(JLINKARM_TIF_JTAG)  returns 0x00 (0004ms, 0567ms total)
T3BF0 000:933 JLINK_SetSpeed(20000) (0001ms, 0568ms total)
T3BF0 000:934 JLINK_GetIdData(...) >0x2F8 JTAG>TotalIRLen = 9, IRPrint = 0x0011 >0x30 JTAG> >0x210 JTAG> >0x40 JTAG> >0x40 JTAG> >0x40 JTAG> >0x30 JTAG> >0x40 JTAG> >0x40 JTAG> >0x40 JTAG> >0x40 JTAG> >0x40 JTAG> >0x40 JTAG> >0x40 JTAG> >0x40 JTAG> >0x40 JTAG> >0x40 JTAG> >0x40 JTAG> >0x40 JTAG> >0x40 JTAG> >0x40 JTAG> >0x40 JTAG> >0x2F8 JTAG>TotalIRLen = 9, IRPrint = 0x0011 >0x30 JTAG> >0x210 JTAG> >0x70 JTAG> >0x40 JTAG> >0x40 JTAG> >0x40 JTAG> >0x50 JTAG> >0x80 JTAG> >0x40 JTAG> >0x30 JTAG>
 >0x40 JTAG> >0x40 JTAG> >0x30 JTAG> >0x40 JTAG> >0x50 JTAG>Found Cortex-M4 r0p1, Little endian. -- CPU_WriteMem(4 bytes @ 0xE0002000) -- CPU_ReadMem(4 bytes @ 0xE000EDF0) -- CPU_WriteMem(4 bytes @ 0xE000EDF0) -- CPU_ReadMem(4 bytes @ 0xE0002000)FPUnit: 6 code (BP) slots and 2 literal slots -- CPU_ReadMem(4 bytes @ 0xE000EDFC) -- CPU_WriteMem(4 bytes @ 0xE000EDFC) -- CPU_ReadMem(4 bytes @ 0xE0001000) -- CPU_WriteMem(4 bytes @ 0xE0001000) -- CPU_ReadMem(4 bytes @ 0xE00FF010)TPIU fitted.
 -- CPU_ReadMem(4 bytes @ 0xE00FF014)ETM fitted. -- CPU_ReadMem(4 bytes @ 0xE00FF018) ScanLen=9 NumDevices=2 aId[0]=0x4BA00477 aIrRead[0]=0 aScanLen[0]=0 aScanRead[0]=0 (0099ms, 0667ms total)
T3BF0 001:033 JLINK_JTAG_GetDeviceID(DeviceIndex = 0)  returns 0x4BA00477 (0000ms, 0667ms total)
T3BF0 001:033 JLINK_JTAG_GetDeviceInfo(DeviceIndex = 0)  returns 0x00 (0000ms, 0667ms total)
T3BF0 001:033 JLINK_JTAG_GetDeviceID(DeviceIndex = 1)  returns 0x6413041 (0000ms, 0667ms total)
T3BF0 001:033 JLINK_JTAG_GetDeviceInfo(DeviceIndex = 1)  returns 0x00 (0001ms, 0668ms total)
T3BF0 001:034 JLINK_GetDLLVersion()  returns 49000 (0000ms, 0668ms total)
T3BF0 001:034 JLINK_CORE_GetFound()  returns 0xE0000FF (0000ms, 0668ms total)
T3BF0 001:050 JLINK_ReadMem (0xE00FF000, 0x0020 Bytes, ...) -- CPU is running -- CPU_ReadMem(32 bytes @ 0xE00FF000) - Data: 03 F0 F0 FF 03 20 F0 FF 03 30 F0 FF 03 10 F0 FF ...  returns 0x00 (0001ms, 0669ms total)
T3BF0 001:051 JLINK_ReadMem (0xE000EFF0, 0x0010 Bytes, ...) -- CPU is running -- CPU_ReadMem(16 bytes @ 0xE000EFF0) - Data: 0D 00 00 00 E0 00 00 00 05 00 00 00 B1 00 00 00  returns 0x00 (0001ms, 0670ms total)
T3BF0 001:052 JLINK_ReadMem (0xE000EFD0, 0x0020 Bytes, ...) -- CPU is running -- CPU_ReadMem(32 bytes @ 0xE000EFD0) - Data: 04 00 00 00 00 00 00 00 00 00 00 00 00 00 00 00 ...  returns 0x00 (0001ms, 0671ms total)
T3BF0 001:053 JLINK_ReadMem (0xE0001FF0, 0x0010 Bytes, ...) -- CPU is running -- CPU_ReadMem(16 bytes @ 0xE0001FF0) - Data: 0D 00 00 00 E0 00 00 00 05 00 00 00 B1 00 00 00  returns 0x00 (0001ms, 0672ms total)
T3BF0 001:054 JLINK_ReadMem (0xE0001FD0, 0x0020 Bytes, ...) -- CPU is running -- CPU_ReadMem(32 bytes @ 0xE0001FD0) - Data: 04 00 00 00 00 00 00 00 00 00 00 00 00 00 00 00 ...  returns 0x00 (0001ms, 0673ms total)
T3BF0 001:055 JLINK_ReadMem (0xE0002FF0, 0x0010 Bytes, ...) -- CPU is running -- CPU_ReadMem(16 bytes @ 0xE0002FF0) - Data: 0D 00 00 00 E0 00 00 00 05 00 00 00 B1 00 00 00  returns 0x00 (0001ms, 0674ms total)
T3BF0 001:056 JLINK_ReadMem (0xE0002FD0, 0x0020 Bytes, ...) -- CPU is running -- CPU_ReadMem(32 bytes @ 0xE0002FD0) - Data: 04 00 00 00 00 00 00 00 00 00 00 00 00 00 00 00 ...  returns 0x00 (0001ms, 0675ms total)
T3BF0 001:057 JLINK_ReadMem (0xE0000FF0, 0x0010 Bytes, ...) -- CPU is running -- CPU_ReadMem(16 bytes @ 0xE0000FF0) - Data: 0D 00 00 00 E0 00 00 00 05 00 00 00 B1 00 00 00  returns 0x00 (0001ms, 0676ms total)
T3BF0 001:058 JLINK_ReadMem (0xE0000FD0, 0x0020 Bytes, ...) -- CPU is running -- CPU_ReadMem(32 bytes @ 0xE0000FD0) - Data: 04 00 00 00 00 00 00 00 00 00 00 00 00 00 00 00 ...  returns 0x00 (0001ms, 0677ms total)
T3BF0 001:059 JLINK_ReadMem (0xE0040FF0, 0x0010 Bytes, ...) -- CPU is running -- CPU_ReadMem(16 bytes @ 0xE0040FF0) - Data: 0D 00 00 00 90 00 00 00 05 00 00 00 B1 00 00 00  returns 0x00 (0001ms, 0678ms total)
T3BF0 001:060 JLINK_ReadMem (0xE0040FD0, 0x0020 Bytes, ...) -- CPU is running -- CPU_ReadMem(32 bytes @ 0xE0040FD0) - Data: 04 00 00 00 00 00 00 00 00 00 00 00 00 00 00 00 ...  returns 0x00 (0002ms, 0680ms total)
T3BF0 001:062 JLINK_ReadMem (0xE0041FF0, 0x0010 Bytes, ...) -- CPU is running -- CPU_ReadMem(16 bytes @ 0xE0041FF0) - Data: 0D 00 00 00 90 00 00 00 05 00 00 00 B1 00 00 00  returns 0x00 (0001ms, 0681ms total)
T3BF0 001:063 JLINK_ReadMem (0xE0041FD0, 0x0020 Bytes, ...) -- CPU is running -- CPU_ReadMem(32 bytes @ 0xE0041FD0) - Data: 04 00 00 00 00 00 00 00 00 00 00 00 00 00 00 00 ...  returns 0x00 (0001ms, 0682ms total)
T3BF0 001:064 JLINK_ReadMemU32(0xE000EF40, 0x0001 Items, ...) -- CPU is running -- CPU_ReadMem(4 bytes @ 0xE000EF40) - Data: 21 00 11 10  returns 0x01 (0000ms, 0682ms total)
T3BF0 001:064 JLINK_ReadMemU32(0xE000EF44, 0x0001 Items, ...) -- CPU is running -- CPU_ReadMem(4 bytes @ 0xE000EF44) - Data: 11 00 00 11  returns 0x01 (0002ms, 0684ms total)
T3BF0 001:066 JLINK_ReadMemU32(0xE000ED00, 0x0001 Items, ...) -- CPU is running -- CPU_ReadMem(4 bytes @ 0xE000ED00) - Data: 41 C2 0F 41  returns 0x01 (0001ms, 0685ms total)
T3BF0 001:067 JLINK_SetResetType(JLINKARM_RESET_TYPE_NORMAL)  returns JLINKARM_RESET_TYPE_NORMAL (0000ms, 0685ms total)
T3BF0 001:067 JLINK_Reset() -- CPU is running -- CPU_WriteMem(4 bytes @ 0xE000EDF0) -- CPU is running -- CPU_WriteMem(4 bytes @ 0xE000EDFC) -- CPU is running -- CPU_WriteMem(4 bytes @ 0xE000ED0C) -- CPU is running -- CPU_ReadMem(4 bytes @ 0xE000EDF0) -- CPU is running -- CPU_ReadMem(4 bytes @ 0xE000EDF0) -- CPU is running -- CPU_WriteMem(4 bytes @ 0xE000EDF0) -- CPU is running -- CPU_WriteMem(4 bytes @ 0xE000EDFC) -- CPU is running -- CPU_ReadMem(4 bytes @ 0xE000EDF0) >0x80 JTAG> >0x40 JTAG> >0x30 JTAG>
 >0x40 JTAG> >0x50 JTAG> >0x40 JTAG> -- CPU_WriteMem(4 bytes @ 0xE000EDFC) -- CPU_WriteMem(4 bytes @ 0xE0001028) -- CPU_WriteMem(4 bytes @ 0xE0001038) -- CPU_WriteMem(4 bytes @ 0xE0001048) -- CPU_WriteMem(4 bytes @ 0xE0001058) -- CPU_WriteMem(4 bytes @ 0xE0002000) -- CPU_ReadMem(4 bytes @ 0xE000EDFC) -- CPU_ReadMem(4 bytes @ 0xE0001000) (0034ms, 0719ms total)
T3BF0 001:101 JLINK_Halt()  returns 0x00 (0000ms, 0719ms total)
T3BF0 001:101 JLINK_IsHalted()  returns TRUE (0000ms, 0719ms total)
T3BF0 001:101 JLINK_ReadMemU32(0xE000EDF0, 0x0001 Items, ...) -- CPU_ReadMem(4 bytes @ 0xE000EDF0) - Data: 03 00 03 00  returns 0x01 (0001ms, 0720ms total)
T3BF0 001:102 JLINK_WriteU32(0xE000EDF0, 0xA05F0003) -- CPU_WriteMem(4 bytes @ 0xE000EDF0)  returns 0x00 (0000ms, 0720ms total)
T3BF0 001:102 JLINK_WriteU32(0xE000EDFC, 0x01000000) -- CPU_WriteMem(4 bytes @ 0xE000EDFC)  returns 0x00 (0001ms, 0721ms total)
T3BF0 001:133 JLINK_GetHWStatus(...)  returns 0x00 (0001ms, 0722ms total)
T3BF0 001:160 JLINK_GetNumBPUnits(Type = 0xFFFFFF00)  returns 0x06 (0000ms, 0722ms total)
T3BF0 001:160 JLINK_GetNumBPUnits(Type = 0xF0)  returns 0x2000 (0000ms, 0722ms total)
T3BF0 001:160 JLINK_GetNumWPUnits()  returns 0x04 (0000ms, 0722ms total)
T3BF0 001:188 JLINK_GetSpeed()  returns 0x2EE0 (0000ms, 0722ms total)
T3BF0 001:206 JLINK_ReadMemU32(0xE000E004, 0x0001 Items, ...) -- CPU_ReadMem(4 bytes @ 0xE000E004) - Data: 02 00 00 00  returns 0x01 (0000ms, 0722ms total)
T3BF0 001:206 JLINK_ReadMemU32(0xE000E004, 0x0001 Items, ...) -- CPU_ReadMem(4 bytes @ 0xE000E004) - Data: 02 00 00 00  returns 0x01 (0002ms, 0724ms total)
T3BF0 001:208 JLINK_WriteMem(0xE0001000, 0x001C Bytes, ...) - Data: 01 00 00 00 00 00 00 00 00 00 00 00 00 00 00 00 ... -- CPU_WriteMem(28 bytes @ 0xE0001000)  returns 0x1C (0000ms, 0724ms total)
T3BF0 001:208 JLINK_ReadMem (0xE0001000, 0x001C Bytes, ...) -- CPU_ReadMem(28 bytes @ 0xE0001000) - Data: 01 00 00 40 00 00 00 00 00 00 00 00 00 00 00 00 ...  returns 0x00 (0001ms, 0725ms total)
T3BF0 001:209 JLINK_Halt()  returns 0x00 (0001ms, 0726ms total)
T3BF0 001:210 JLINK_IsHalted()  returns TRUE (0000ms, 0726ms total)
T3BF0 001:217 JLINK_WriteMem(0x20000000, 0x0180 Bytes, ...) - Data: 00 BE 0A E0 0D 78 2D 06 68 40 08 24 40 00 00 D3 ... -- CPU_WriteMem(384 bytes @ 0x20000000)  returns 0x180 (0003ms, 0729ms total)
T3BF0 001:220 JLINK_WriteReg(R0, 0x08000000)  returns 0x00 (0000ms, 0729ms total)
T3BF0 001:220 JLINK_WriteReg(R1, 0x0A037A00)  returns 0x00 (0000ms, 0729ms total)
T3BF0 001:220 JLINK_WriteReg(R2, 0x00000001)  returns 0x00 (0000ms, 0729ms total)
T3BF0 001:220 JLINK_WriteReg(R3, 0x00000000)  returns 0x00 (0000ms, 0729ms total)
T3BF0 001:220 JLINK_WriteReg(R4, 0x00000000)  returns 0x00 (0000ms, 0729ms total)
T3BF0 001:220 JLINK_WriteReg(R5, 0x00000000)  returns 0x00 (0000ms, 0729ms total)
T3BF0 001:220 JLINK_WriteReg(R6, 0x00000000)  returns 0x00 (0000ms, 0729ms total)
T3BF0 001:220 JLINK_WriteReg(R7, 0x00000000)  returns 0x00 (0000ms, 0729ms total)
T3BF0 001:220 JLINK_WriteReg(R8, 0x00000000)  returns 0x00 (0000ms, 0729ms total)
T3BF0 001:220 JLINK_WriteReg(R9, 0x2000017C)  returns 0x00 (0000ms, 0729ms total)
T3BF0 001:220 JLINK_WriteReg(R10, 0x00000000)  returns 0x00 (0000ms, 0729ms total)
T3BF0 001:220 JLINK_WriteReg(R11, 0x00000000)  returns 0x00 (0000ms, 0729ms total)
T3BF0 001:220 JLINK_WriteReg(R12, 0x00000000)  returns 0x00 (0001ms, 0730ms total)
T3BF0 001:221 JLINK_WriteReg(R13 (SP), 0x20001000)  returns 0x00 (0000ms, 0730ms total)
T3BF0 001:221 JLINK_WriteReg(R14, 0x20000001)  returns 0x00 (0000ms, 0730ms total)
T3BF0 001:221 JLINK_WriteReg(R15 (PC), 0x20000054)  returns 0x00 (0000ms, 0730ms total)
T3BF0 001:221 JLINK_WriteReg(XPSR, 0x01000000)  returns 0x00 (0000ms, 0730ms total)
T3BF0 001:221 JLINK_WriteReg(MSP, 0x20001000)  returns 0x00 (0000ms, 0730ms total)
T3BF0 001:221 JLINK_WriteReg(PSP, 0x20001000)  returns 0x00 (0000ms, 0730ms total)
T3BF0 001:221 JLINK_WriteReg(CFBP, 0x00000000)  returns 0x00 (0000ms, 0730ms total)
T3BF0 001:221 JLINK_SetBPEx(Addr = 0x20000000, Type = 0xFFFFFFF2) -- CPU_ReadMem(2 bytes @ 0x20000000)  returns 0x00000001 (0001ms, 0731ms total)
T3BF0 001:222 JLINK_Go() -- CPU_WriteMem(2 bytes @ 0x20000000) -- CPU_WriteMem(4 bytes @ 0xE0002008) -- CPU_WriteMem(4 bytes @ 0xE000200C) -- CPU_WriteMem(4 bytes @ 0xE0002010) -- CPU_WriteMem(4 bytes @ 0xE0002014) -- CPU_WriteMem(4 bytes @ 0xE0002018) -- CPU_WriteMem(4 bytes @ 0xE000201C) -- CPU_WriteMem(4 bytes @ 0xE0001004) (0008ms, 0739ms total)
T3BF0 001:230 JLINK_IsHalted() -- CPU_ReadMem(2 bytes @ 0x20000000)  returns TRUE (0004ms, 0743ms total)
T3BF0 001:234 JLINK_ReadReg(R15 (PC))  returns 0x20000000 (0000ms, 0739ms total)
T3BF0 001:234 JLINK_ClrBPEx(BPHandle = 0x00000001)  returns 0x00 (0000ms, 0739ms total)
T3BF0 001:234 JLINK_ReadReg(R0)  returns 0x00000000 (0000ms, 0739ms total)
T3BF0 001:235 JLINK_WriteReg(R0, 0x08000000)  returns 0x00 (0000ms, 0739ms total)
T3BF0 001:235 JLINK_WriteReg(R1, 0x00004000)  returns 0x00 (0000ms, 0739ms total)
T3BF0 001:235 JLINK_WriteReg(R2, 0x000000FF)  returns 0x00 (0000ms, 0739ms total)
T3BF0 001:235 JLINK_WriteReg(R3, 0x00000000)  returns 0x00 (0000ms, 0739ms total)
T3BF0 001:235 JLINK_WriteReg(R4, 0x00000000)  returns 0x00 (0000ms, 0739ms total)
T3BF0 001:235 JLINK_WriteReg(R5, 0x00000000)  returns 0x00 (0001ms, 0740ms total)
T3BF0 001:236 JLINK_WriteReg(R6, 0x00000000)  returns 0x00 (0000ms, 0740ms total)
T3BF0 001:236 JLINK_WriteReg(R7, 0x00000000)  returns 0x00 (0000ms, 0740ms total)
T3BF0 001:236 JLINK_WriteReg(R8, 0x00000000)  returns 0x00 (0000ms, 0740ms total)
T3BF0 001:236 JLINK_WriteReg(R9, 0x2000017C)  returns 0x00 (0000ms, 0740ms total)
T3BF0 001:236 JLINK_WriteReg(R10, 0x00000000)  returns 0x00 (0000ms, 0740ms total)
T3BF0 001:236 JLINK_WriteReg(R11, 0x00000000)  returns 0x00 (0000ms, 0740ms total)
T3BF0 001:236 JLINK_WriteReg(R12, 0x00000000)  returns 0x00 (0000ms, 0740ms total)
T3BF0 001:236 JLINK_WriteReg(R13 (SP), 0x20001000)  returns 0x00 (0000ms, 0740ms total)
T3BF0 001:236 JLINK_WriteReg(R14, 0x20000001)  returns 0x00 (0000ms, 0740ms total)
T3BF0 001:236 JLINK_WriteReg(R15 (PC), 0x20000020)  returns 0x00 (0000ms, 0740ms total)
T3BF0 001:236 JLINK_WriteReg(XPSR, 0x01000000)  returns 0x00 (0000ms, 0740ms total)
T3BF0 001:236 JLINK_WriteReg(MSP, 0x20001000)  returns 0x00 (0000ms, 0740ms total)
T3BF0 001:236 JLINK_WriteReg(PSP, 0x20001000)  returns 0x00 (0000ms, 0740ms total)
T3BF0 001:236 JLINK_WriteReg(CFBP, 0x00000000)  returns 0x00 (0000ms, 0740ms total)
T3BF0 001:236 JLINK_SetBPEx(Addr = 0x20000000, Type = 0xFFFFFFF2)  returns 0x00000002 (0000ms, 0740ms total)
T3BF0 001:236 JLINK_Go() (0002ms, 0742ms total)
T3BF0 001:238 JLINK_IsHalted() -- CPU_ReadMem(2 bytes @ 0x20000000)  returns TRUE (0004ms, 0746ms total)
T3BF0 001:242 JLINK_ReadReg(R15 (PC))  returns 0x20000000 (0000ms, 0742ms total)
T3BF0 001:242 JLINK_ClrBPEx(BPHandle = 0x00000002)  returns 0x00 (0000ms, 0742ms total)
T3BF0 001:242 JLINK_ReadReg(R0)  returns 0x00000001 (0000ms, 0742ms total)
T3BF0 001:242 JLINK_WriteReg(R0, 0x08000000)  returns 0x00 (0000ms, 0742ms total)
T3BF0 001:242 JLINK_WriteReg(R1, 0x00004000)  returns 0x00 (0000ms, 0742ms total)
T3BF0 001:242 JLINK_WriteReg(R2, 0x000000FF)  returns 0x00 (0000ms, 0742ms total)
T3BF0 001:242 JLINK_WriteReg(R3, 0x00000000)  returns 0x00 (0000ms, 0742ms total)
T3BF0 001:242 JLINK_WriteReg(R4, 0x00000000)  returns 0x00 (0000ms, 0742ms total)
T3BF0 001:242 JLINK_WriteReg(R5, 0x00000000)  returns 0x00 (0000ms, 0742ms total)
T3BF0 001:242 JLINK_WriteReg(R6, 0x00000000)  returns 0x00 (0001ms, 0743ms total)
T3BF0 001:243 JLINK_WriteReg(R7, 0x00000000)  returns 0x00 (0000ms, 0743ms total)
T3BF0 001:243 JLINK_WriteReg(R8, 0x00000000)  returns 0x00 (0000ms, 0743ms total)
T3BF0 001:243 JLINK_WriteReg(R9, 0x2000017C)  returns 0x00 (0000ms, 0743ms total)
T3BF0 001:243 JLINK_WriteReg(R10, 0x00000000)  returns 0x00 (0000ms, 0743ms total)
T3BF0 001:243 JLINK_WriteReg(R11, 0x00000000)  returns 0x00 (0000ms, 0743ms total)
T3BF0 001:243 JLINK_WriteReg(R12, 0x00000000)  returns 0x00 (0000ms, 0743ms total)
T3BF0 001:243 JLINK_WriteReg(R13 (SP), 0x20001000)  returns 0x00 (0000ms, 0743ms total)
T3BF0 001:243 JLINK_WriteReg(R14, 0x20000001)  returns 0x00 (0000ms, 0743ms total)
T3BF0 001:243 JLINK_WriteReg(R15 (PC), 0x200000BC)  returns 0x00 (0000ms, 0743ms total)
T3BF0 001:243 JLINK_WriteReg(XPSR, 0x01000000)  returns 0x00 (0000ms, 0743ms total)
T3BF0 001:243 JLINK_WriteReg(MSP, 0x20001000)  returns 0x00 (0000ms, 0743ms total)
T3BF0 001:243 JLINK_WriteReg(PSP, 0x20001000)  returns 0x00 (0000ms, 0743ms total)
T3BF0 001:243 JLINK_WriteReg(CFBP, 0x00000000)  returns 0x00 (0000ms, 0743ms total)
T3BF0 001:243 JLINK_SetBPEx(Addr = 0x20000000, Type = 0xFFFFFFF2)  returns 0x00000003 (0000ms, 0743ms total)
T3BF0 001:243 JLINK_Go() (0002ms, 0745ms total)
T3BF0 001:245 JLINK_IsHalted()  returns FALSE (0001ms, 0746ms total)
T3BF0 001:547 JLINK_IsHalted()  returns FALSE (0001ms, 0746ms total)
T3BF0 001:766 JLINK_IsHalted() -- CPU_ReadMem(2 bytes @ 0x20000000)  returns TRUE (0004ms, 0749ms total)
T3BF0 001:770 JLINK_ReadReg(R15 (PC))  returns 0x20000000 (0000ms, 0745ms total)
T3BF0 001:770 JLINK_ClrBPEx(BPHandle = 0x00000003)  returns 0x00 (0000ms, 0745ms total)
T3BF0 001:770 JLINK_ReadReg(R0)  returns 0x00000000 (0000ms, 0745ms total)
T3BF0 001:771 JLINK_WriteReg(R0, 0x08004000)  returns 0x00 (0000ms, 0745ms total)
T3BF0 001:771 JLINK_WriteReg(R1, 0x00004000)  returns 0x00 (0000ms, 0745ms total)
T3BF0 001:771 JLINK_WriteReg(R2, 0x000000FF)  returns 0x00 (0000ms, 0745ms total)
T3BF0 001:771 JLINK_WriteReg(R3, 0x00000000)  returns 0x00 (0000ms, 0745ms total)
T3BF0 001:771 JLINK_WriteReg(R4, 0x00000000)  returns 0x00 (0000ms, 0745ms total)
T3BF0 001:771 JLINK_WriteReg(R5, 0x00000000)  returns 0x00 (0000ms, 0745ms total)
T3BF0 001:771 JLINK_WriteReg(R6, 0x00000000)  returns 0x00 (0000ms, 0745ms total)
T3BF0 001:771 JLINK_WriteReg(R7, 0x00000000)  returns 0x00 (0001ms, 0746ms total)
T3BF0 001:772 JLINK_WriteReg(R8, 0x00000000)  returns 0x00 (0000ms, 0746ms total)
T3BF0 001:772 JLINK_WriteReg(R9, 0x2000017C)  returns 0x00 (0000ms, 0746ms total)
T3BF0 001:772 JLINK_WriteReg(R10, 0x00000000)  returns 0x00 (0000ms, 0746ms total)
T3BF0 001:772 JLINK_WriteReg(R11, 0x00000000)  returns 0x00 (0000ms, 0746ms total)
T3BF0 001:772 JLINK_WriteReg(R12, 0x00000000)  returns 0x00 (0000ms, 0746ms total)
T3BF0 001:772 JLINK_WriteReg(R13 (SP), 0x20001000)  returns 0x00 (0000ms, 0746ms total)
T3BF0 001:772 JLINK_WriteReg(R14, 0x20000001)  returns 0x00 (0000ms, 0746ms total)
T3BF0 001:772 JLINK_WriteReg(R15 (PC), 0x20000020)  returns 0x00 (0000ms, 0746ms total)
T3BF0 001:772 JLINK_WriteReg(XPSR, 0x01000000)  returns 0x00 (0000ms, 0746ms total)
T3BF0 001:772 JLINK_WriteReg(MSP, 0x20001000)  returns 0x00 (0000ms, 0746ms total)
T3BF0 001:772 JLINK_WriteReg(PSP, 0x20001000)  returns 0x00 (0000ms, 0746ms total)
T3BF0 001:772 JLINK_WriteReg(CFBP, 0x00000000)  returns 0x00 (0000ms, 0746ms total)
T3BF0 001:772 JLINK_SetBPEx(Addr = 0x20000000, Type = 0xFFFFFFF2)  returns 0x00000004 (0000ms, 0746ms total)
T3BF0 001:772 JLINK_Go() (0002ms, 0748ms total)
T3BF0 001:774 JLINK_IsHalted() -- CPU_ReadMem(2 bytes @ 0x20000000)  returns TRUE (0004ms, 0752ms total)
T3BF0 001:778 JLINK_ReadReg(R15 (PC))  returns 0x20000000 (0000ms, 0748ms total)
T3BF0 001:778 JLINK_ClrBPEx(BPHandle = 0x00000004)  returns 0x00 (0000ms, 0748ms total)
T3BF0 001:778 JLINK_ReadReg(R0)  returns 0x00000001 (0000ms, 0748ms total)
T3BF0 001:778 JLINK_WriteReg(R0, 0x08004000)  returns 0x00 (0000ms, 0748ms total)
T3BF0 001:778 JLINK_WriteReg(R1, 0x00004000)  returns 0x00 (0000ms, 0748ms total)
T3BF0 001:778 JLINK_WriteReg(R2, 0x000000FF)  returns 0x00 (0000ms, 0748ms total)
T3BF0 001:778 JLINK_WriteReg(R3, 0x00000000)  returns 0x00 (0000ms, 0748ms total)
T3BF0 001:778 JLINK_WriteReg(R4, 0x00000000)  returns 0x00 (0000ms, 0748ms total)
T3BF0 001:778 JLINK_WriteReg(R5, 0x00000000)  returns 0x00 (0000ms, 0748ms total)
T3BF0 001:778 JLINK_WriteReg(R6, 0x00000000)  returns 0x00 (0000ms, 0748ms total)
T3BF0 001:778 JLINK_WriteReg(R7, 0x00000000)  returns 0x00 (0000ms, 0748ms total)
T3BF0 001:778 JLINK_WriteReg(R8, 0x00000000)  returns 0x00 (0000ms, 0748ms total)
T3BF0 001:778 JLINK_WriteReg(R9, 0x2000017C)  returns 0x00 (0000ms, 0748ms total)
T3BF0 001:778 JLINK_WriteReg(R10, 0x00000000)  returns 0x00 (0000ms, 0748ms total)
T3BF0 001:778 JLINK_WriteReg(R11, 0x00000000)  returns 0x00 (0001ms, 0749ms total)
T3BF0 001:779 JLINK_WriteReg(R12, 0x00000000)  returns 0x00 (0000ms, 0749ms total)
T3BF0 001:779 JLINK_WriteReg(R13 (SP), 0x20001000)  returns 0x00 (0000ms, 0749ms total)
T3BF0 001:779 JLINK_WriteReg(R14, 0x20000001)  returns 0x00 (0000ms, 0749ms total)
T3BF0 001:779 JLINK_WriteReg(R15 (PC), 0x200000BC)  returns 0x00 (0000ms, 0749ms total)
T3BF0 001:779 JLINK_WriteReg(XPSR, 0x01000000)  returns 0x00 (0000ms, 0749ms total)
T3BF0 001:779 JLINK_WriteReg(MSP, 0x20001000)  returns 0x00 (0000ms, 0749ms total)
T3BF0 001:779 JLINK_WriteReg(PSP, 0x20001000)  returns 0x00 (0000ms, 0749ms total)
T3BF0 001:779 JLINK_WriteReg(CFBP, 0x00000000)  returns 0x00 (0000ms, 0749ms total)
T3BF0 001:779 JLINK_SetBPEx(Addr = 0x20000000, Type = 0xFFFFFFF2)  returns 0x00000005 (0000ms, 0749ms total)
T3BF0 001:779 JLINK_Go() (0001ms, 0750ms total)
T3BF0 001:781 JLINK_IsHalted()  returns FALSE (0000ms, 0751ms total)
T3BF0 001:998 JLINK_IsHalted()  returns FALSE (0000ms, 0751ms total)
T3BF0 002:217 JLINK_IsHalted() -- CPU_ReadMem(2 bytes @ 0x20000000)  returns TRUE (0004ms, 0755ms total)
T3BF0 002:221 JLINK_ReadReg(R15 (PC))  returns 0x20000000 (0000ms, 0751ms total)
T3BF0 002:221 JLINK_ClrBPEx(BPHandle = 0x00000005)  returns 0x00 (0000ms, 0751ms total)
T3BF0 002:221 JLINK_ReadReg(R0)  returns 0x00000000 (0000ms, 0751ms total)
T3BF0 002:222 JLINK_WriteReg(R0, 0x08008000)  returns 0x00 (0000ms, 0751ms total)
T3BF0 002:222 JLINK_WriteReg(R1, 0x00004000)  returns 0x00 (0000ms, 0751ms total)
T3BF0 002:222 JLINK_WriteReg(R2, 0x000000FF)  returns 0x00 (0001ms, 0752ms total)
T3BF0 002:223 JLINK_WriteReg(R3, 0x00000000)  returns 0x00 (0000ms, 0752ms total)
T3BF0 002:223 JLINK_WriteReg(R4, 0x00000000)  returns 0x00 (0000ms, 0752ms total)
T3BF0 002:223 JLINK_WriteReg(R5, 0x00000000)  returns 0x00 (0000ms, 0752ms total)
T3BF0 002:223 JLINK_WriteReg(R6, 0x00000000)  returns 0x00 (0000ms, 0752ms total)
T3BF0 002:223 JLINK_WriteReg(R7, 0x00000000)  returns 0x00 (0000ms, 0752ms total)
T3BF0 002:223 JLINK_WriteReg(R8, 0x00000000)  returns 0x00 (0000ms, 0752ms total)
T3BF0 002:223 JLINK_WriteReg(R9, 0x2000017C)  returns 0x00 (0000ms, 0752ms total)
T3BF0 002:223 JLINK_WriteReg(R10, 0x00000000)  returns 0x00 (0000ms, 0752ms total)
T3BF0 002:223 JLINK_WriteReg(R11, 0x00000000)  returns 0x00 (0000ms, 0752ms total)
T3BF0 002:223 JLINK_WriteReg(R12, 0x00000000)  returns 0x00 (0000ms, 0752ms total)
T3BF0 002:223 JLINK_WriteReg(R13 (SP), 0x20001000)  returns 0x00 (0000ms, 0752ms total)
T3BF0 002:223 JLINK_WriteReg(R14, 0x20000001)  returns 0x00 (0000ms, 0752ms total)
T3BF0 002:223 JLINK_WriteReg(R15 (PC), 0x20000020)  returns 0x00 (0000ms, 0752ms total)
T3BF0 002:223 JLINK_WriteReg(XPSR, 0x01000000)  returns 0x00 (0000ms, 0752ms total)
T3BF0 002:223 JLINK_WriteReg(MSP, 0x20001000)  returns 0x00 (0000ms, 0752ms total)
T3BF0 002:223 JLINK_WriteReg(PSP, 0x20001000)  returns 0x00 (0000ms, 0752ms total)
T3BF0 002:223 JLINK_WriteReg(CFBP, 0x00000000)  returns 0x00 (0000ms, 0752ms total)
T3BF0 002:223 JLINK_SetBPEx(Addr = 0x20000000, Type = 0xFFFFFFF2)  returns 0x00000006 (0000ms, 0752ms total)
T3BF0 002:223 JLINK_Go() (0002ms, 0754ms total)
T3BF0 002:225 JLINK_IsHalted() -- CPU_ReadMem(2 bytes @ 0x20000000)  returns TRUE (0004ms, 0758ms total)
T3BF0 002:229 JLINK_ReadReg(R15 (PC))  returns 0x20000000 (0000ms, 0754ms total)
T3BF0 002:229 JLINK_ClrBPEx(BPHandle = 0x00000006)  returns 0x00 (0000ms, 0754ms total)
T3BF0 002:229 JLINK_ReadReg(R0)  returns 0x00000001 (0000ms, 0754ms total)
T3BF0 002:229 JLINK_WriteReg(R0, 0x08008000)  returns 0x00 (0000ms, 0754ms total)
T3BF0 002:229 JLINK_WriteReg(R1, 0x00004000)  returns 0x00 (0000ms, 0754ms total)
T3BF0 002:229 JLINK_WriteReg(R2, 0x000000FF)  returns 0x00 (0000ms, 0754ms total)
T3BF0 002:229 JLINK_WriteReg(R3, 0x00000000)  returns 0x00 (0001ms, 0755ms total)
T3BF0 002:230 JLINK_WriteReg(R4, 0x00000000)  returns 0x00 (0000ms, 0755ms total)
T3BF0 002:230 JLINK_WriteReg(R5, 0x00000000)  returns 0x00 (0000ms, 0755ms total)
T3BF0 002:230 JLINK_WriteReg(R6, 0x00000000)  returns 0x00 (0000ms, 0755ms total)
T3BF0 002:230 JLINK_WriteReg(R7, 0x00000000)  returns 0x00 (0000ms, 0755ms total)
T3BF0 002:230 JLINK_WriteReg(R8, 0x00000000)  returns 0x00 (0000ms, 0755ms total)
T3BF0 002:230 JLINK_WriteReg(R9, 0x2000017C)  returns 0x00 (0000ms, 0755ms total)
T3BF0 002:230 JLINK_WriteReg(R10, 0x00000000)  returns 0x00 (0000ms, 0755ms total)
T3BF0 002:230 JLINK_WriteReg(R11, 0x00000000)  returns 0x00 (0000ms, 0755ms total)
T3BF0 002:230 JLINK_WriteReg(R12, 0x00000000)  returns 0x00 (0000ms, 0755ms total)
T3BF0 002:230 JLINK_WriteReg(R13 (SP), 0x20001000)  returns 0x00 (0000ms, 0755ms total)
T3BF0 002:230 JLINK_WriteReg(R14, 0x20000001)  returns 0x00 (0000ms, 0755ms total)
T3BF0 002:230 JLINK_WriteReg(R15 (PC), 0x200000BC)  returns 0x00 (0000ms, 0755ms total)
T3BF0 002:230 JLINK_WriteReg(XPSR, 0x01000000)  returns 0x00 (0000ms, 0755ms total)
T3BF0 002:230 JLINK_WriteReg(MSP, 0x20001000)  returns 0x00 (0000ms, 0755ms total)
T3BF0 002:230 JLINK_WriteReg(PSP, 0x20001000)  returns 0x00 (0000ms, 0755ms total)
T3BF0 002:230 JLINK_WriteReg(CFBP, 0x00000000)  returns 0x00 (0000ms, 0755ms total)
T3BF0 002:230 JLINK_SetBPEx(Addr = 0x20000000, Type = 0xFFFFFFF2)  returns 0x00000007 (0000ms, 0755ms total)
T3BF0 002:230 JLINK_Go() (0002ms, 0757ms total)
T3BF0 002:232 JLINK_IsHalted()  returns FALSE (0000ms, 0757ms total)
T3BF0 002:451 JLINK_IsHalted()  returns FALSE (0001ms, 0758ms total)
T3BF0 002:671 JLINK_IsHalted() -- CPU_ReadMem(2 bytes @ 0x20000000)  returns TRUE (0004ms, 0761ms total)
T3BF0 002:675 JLINK_ReadReg(R15 (PC))  returns 0x20000000 (0000ms, 0757ms total)
T3BF0 002:675 JLINK_ClrBPEx(BPHandle = 0x00000007)  returns 0x00 (0000ms, 0757ms total)
T3BF0 002:675 JLINK_ReadReg(R0)  returns 0x00000000 (0000ms, 0757ms total)
T3BF0 002:676 JLINK_WriteReg(R0, 0x0800C000)  returns 0x00 (0000ms, 0757ms total)
T3BF0 002:676 JLINK_WriteReg(R1, 0x00004000)  returns 0x00 (0000ms, 0757ms total)
T3BF0 002:676 JLINK_WriteReg(R2, 0x000000FF)  returns 0x00 (0000ms, 0757ms total)
T3BF0 002:676 JLINK_WriteReg(R3, 0x00000000)  returns 0x00 (0000ms, 0757ms total)
T3BF0 002:676 JLINK_WriteReg(R4, 0x00000000)  returns 0x00 (0000ms, 0757ms total)
T3BF0 002:676 JLINK_WriteReg(R5, 0x00000000)  returns 0x00 (0000ms, 0757ms total)
T3BF0 002:676 JLINK_WriteReg(R6, 0x00000000)  returns 0x00 (0000ms, 0757ms total)
T3BF0 002:676 JLINK_WriteReg(R7, 0x00000000)  returns 0x00 (0000ms, 0757ms total)
T3BF0 002:676 JLINK_WriteReg(R8, 0x00000000)  returns 0x00 (0000ms, 0757ms total)
T3BF0 002:676 JLINK_WriteReg(R9, 0x2000017C)  returns 0x00 (0000ms, 0757ms total)
T3BF0 002:676 JLINK_WriteReg(R10, 0x00000000)  returns 0x00 (0000ms, 0757ms total)
T3BF0 002:676 JLINK_WriteReg(R11, 0x00000000)  returns 0x00 (0000ms, 0757ms total)
T3BF0 002:676 JLINK_WriteReg(R12, 0x00000000)  returns 0x00 (0000ms, 0757ms total)
T3BF0 002:676 JLINK_WriteReg(R13 (SP), 0x20001000)  returns 0x00 (0000ms, 0757ms total)
T3BF0 002:676 JLINK_WriteReg(R14, 0x20000001)  returns 0x00 (0000ms, 0757ms total)
T3BF0 002:676 JLINK_WriteReg(R15 (PC), 0x20000020)  returns 0x00 (0001ms, 0758ms total)
T3BF0 002:677 JLINK_WriteReg(XPSR, 0x01000000)  returns 0x00 (0000ms, 0758ms total)
T3BF0 002:677 JLINK_WriteReg(MSP, 0x20001000)  returns 0x00 (0000ms, 0758ms total)
T3BF0 002:677 JLINK_WriteReg(PSP, 0x20001000)  returns 0x00 (0000ms, 0758ms total)
T3BF0 002:677 JLINK_WriteReg(CFBP, 0x00000000)  returns 0x00 (0000ms, 0758ms total)
T3BF0 002:677 JLINK_SetBPEx(Addr = 0x20000000, Type = 0xFFFFFFF2)  returns 0x00000008 (0000ms, 0758ms total)
T3BF0 002:677 JLINK_Go() (0002ms, 0760ms total)
T3BF0 002:679 JLINK_IsHalted() -- CPU_ReadMem(2 bytes @ 0x20000000)  returns TRUE (0004ms, 0764ms total)
T3BF0 002:683 JLINK_ReadReg(R15 (PC))  returns 0x20000000 (0000ms, 0760ms total)
T3BF0 002:683 JLINK_ClrBPEx(BPHandle = 0x00000008)  returns 0x00 (0000ms, 0760ms total)
T3BF0 002:683 JLINK_ReadReg(R0)  returns 0x00000001 (0000ms, 0760ms total)
T3BF0 002:683 JLINK_WriteReg(R0, 0x0800C000)  returns 0x00 (0000ms, 0760ms total)
T3BF0 002:683 JLINK_WriteReg(R1, 0x00004000)  returns 0x00 (0000ms, 0760ms total)
T3BF0 002:683 JLINK_WriteReg(R2, 0x000000FF)  returns 0x00 (0000ms, 0760ms total)
T3BF0 002:683 JLINK_WriteReg(R3, 0x00000000)  returns 0x00 (0000ms, 0760ms total)
T3BF0 002:683 JLINK_WriteReg(R4, 0x00000000)  returns 0x00 (0000ms, 0760ms total)
T3BF0 002:683 JLINK_WriteReg(R5, 0x00000000)  returns 0x00 (0000ms, 0760ms total)
T3BF0 002:683 JLINK_WriteReg(R6, 0x00000000)  returns 0x00 (0000ms, 0760ms total)
T3BF0 002:683 JLINK_WriteReg(R7, 0x00000000)  returns 0x00 (0000ms, 0760ms total)
T3BF0 002:683 JLINK_WriteReg(R8, 0x00000000)  returns 0x00 (0000ms, 0760ms total)
T3BF0 002:683 JLINK_WriteReg(R9, 0x2000017C)  returns 0x00 (0000ms, 0760ms total)
T3BF0 002:683 JLINK_WriteReg(R10, 0x00000000)  returns 0x00 (0000ms, 0760ms total)
T3BF0 002:683 JLINK_WriteReg(R11, 0x00000000)  returns 0x00 (0000ms, 0760ms total)
T3BF0 002:683 JLINK_WriteReg(R12, 0x00000000)  returns 0x00 (0000ms, 0760ms total)
T3BF0 002:683 JLINK_WriteReg(R13 (SP), 0x20001000)  returns 0x00 (0000ms, 0760ms total)
T3BF0 002:683 JLINK_WriteReg(R14, 0x20000001)  returns 0x00 (0000ms, 0760ms total)
T3BF0 002:683 JLINK_WriteReg(R15 (PC), 0x200000BC)  returns 0x00 (0001ms, 0761ms total)
T3BF0 002:684 JLINK_WriteReg(XPSR, 0x01000000)  returns 0x00 (0000ms, 0761ms total)
T3BF0 002:684 JLINK_WriteReg(MSP, 0x20001000)  returns 0x00 (0000ms, 0761ms total)
T3BF0 002:684 JLINK_WriteReg(PSP, 0x20001000)  returns 0x00 (0000ms, 0761ms total)
T3BF0 002:684 JLINK_WriteReg(CFBP, 0x00000000)  returns 0x00 (0000ms, 0761ms total)
T3BF0 002:684 JLINK_SetBPEx(Addr = 0x20000000, Type = 0xFFFFFFF2)  returns 0x00000009 (0000ms, 0761ms total)
T3BF0 002:684 JLINK_Go() (0001ms, 0762ms total)
T3BF0 002:685 JLINK_IsHalted()  returns FALSE (0001ms, 0763ms total)
T3BF0 002:900 JLINK_IsHalted()  returns FALSE (0001ms, 0763ms total)
T3BF0 003:117 JLINK_IsHalted() -- CPU_ReadMem(2 bytes @ 0x20000000)  returns TRUE (0004ms, 0766ms total)
T3BF0 003:121 JLINK_ReadReg(R15 (PC))  returns 0x20000000 (0000ms, 0762ms total)
T3BF0 003:121 JLINK_ClrBPEx(BPHandle = 0x00000009)  returns 0x00 (0000ms, 0762ms total)
T3BF0 003:121 JLINK_ReadReg(R0)  returns 0x00000000 (0000ms, 0762ms total)
T3BF0 003:122 JLINK_WriteReg(R0, 0x00000001)  returns 0x00 (0000ms, 0762ms total)
T3BF0 003:122 JLINK_WriteReg(R1, 0x00004000)  returns 0x00 (0000ms, 0762ms total)
T3BF0 003:122 JLINK_WriteReg(R2, 0x000000FF)  returns 0x00 (0000ms, 0762ms total)
T3BF0 003:122 JLINK_WriteReg(R3, 0x00000000)  returns 0x00 (0000ms, 0762ms total)
T3BF0 003:122 JLINK_WriteReg(R4, 0x00000000)  returns 0x00 (0000ms, 0762ms total)
T3BF0 003:122 JLINK_WriteReg(R5, 0x00000000)  returns 0x00 (0000ms, 0762ms total)
T3BF0 003:122 JLINK_WriteReg(R6, 0x00000000)  returns 0x00 (0001ms, 0763ms total)
T3BF0 003:123 JLINK_WriteReg(R7, 0x00000000)  returns 0x00 (0000ms, 0763ms total)
T3BF0 003:123 JLINK_WriteReg(R8, 0x00000000)  returns 0x00 (0000ms, 0763ms total)
T3BF0 003:123 JLINK_WriteReg(R9, 0x2000017C)  returns 0x00 (0000ms, 0763ms total)
T3BF0 003:123 JLINK_WriteReg(R10, 0x00000000)  returns 0x00 (0000ms, 0763ms total)
T3BF0 003:123 JLINK_WriteReg(R11, 0x00000000)  returns 0x00 (0000ms, 0763ms total)
T3BF0 003:123 JLINK_WriteReg(R12, 0x00000000)  returns 0x00 (0000ms, 0763ms total)
T3BF0 003:123 JLINK_WriteReg(R13 (SP), 0x20001000)  returns 0x00 (0000ms, 0763ms total)
T3BF0 003:123 JLINK_WriteReg(R14, 0x20000001)  returns 0x00 (0000ms, 0763ms total)
T3BF0 003:123 JLINK_WriteReg(R15 (PC), 0x20000082)  returns 0x00 (0000ms, 0763ms total)
T3BF0 003:123 JLINK_WriteReg(XPSR, 0x01000000)  returns 0x00 (0000ms, 0763ms total)
T3BF0 003:123 JLINK_WriteReg(MSP, 0x20001000)  returns 0x00 (0000ms, 0763ms total)
T3BF0 003:123 JLINK_WriteReg(PSP, 0x20001000)  returns 0x00 (0000ms, 0763ms total)
T3BF0 003:123 JLINK_WriteReg(CFBP, 0x00000000)  returns 0x00 (0000ms, 0763ms total)
T3BF0 003:123 JLINK_SetBPEx(Addr = 0x20000000, Type = 0xFFFFFFF2)  returns 0x0000000A (0000ms, 0763ms total)
T3BF0 003:123 JLINK_Go() (0001ms, 0764ms total)
T3BF0 003:124 JLINK_IsHalted() -- CPU_ReadMem(2 bytes @ 0x20000000)  returns TRUE (0005ms, 0769ms total)
T3BF0 003:129 JLINK_ReadReg(R15 (PC))  returns 0x20000000 (0000ms, 0764ms total)
T3BF0 003:129 JLINK_ClrBPEx(BPHandle = 0x0000000A)  returns 0x00 (0000ms, 0764ms total)
T3BF0 003:129 JLINK_ReadReg(R0)  returns 0x00000000 (0000ms, 0764ms total)
T3BF0 003:198 JLINK_WriteMem(0x20000000, 0x0180 Bytes, ...) - Data: 00 BE 0A E0 0D 78 2D 06 68 40 08 24 40 00 00 D3 ... -- CPU_WriteMem(384 bytes @ 0x20000000)  returns 0x180 (0003ms, 0767ms total)
T3BF0 003:201 JLINK_WriteReg(R0, 0x08000000)  returns 0x00 (0000ms, 0767ms total)
T3BF0 003:201 JLINK_WriteReg(R1, 0x0A037A00)  returns 0x00 (0001ms, 0768ms total)
T3BF0 003:202 JLINK_WriteReg(R2, 0x00000002)  returns 0x00 (0000ms, 0768ms total)
T3BF0 003:202 JLINK_WriteReg(R3, 0x00000000)  returns 0x00 (0000ms, 0768ms total)
T3BF0 003:202 JLINK_WriteReg(R4, 0x00000000)  returns 0x00 (0000ms, 0768ms total)
T3BF0 003:202 JLINK_WriteReg(R5, 0x00000000)  returns 0x00 (0000ms, 0768ms total)
T3BF0 003:202 JLINK_WriteReg(R6, 0x00000000)  returns 0x00 (0000ms, 0768ms total)
T3BF0 003:202 JLINK_WriteReg(R7, 0x00000000)  returns 0x00 (0000ms, 0768ms total)
T3BF0 003:202 JLINK_WriteReg(R8, 0x00000000)  returns 0x00 (0000ms, 0768ms total)
T3BF0 003:202 JLINK_WriteReg(R9, 0x2000017C)  returns 0x00 (0000ms, 0768ms total)
T3BF0 003:202 JLINK_WriteReg(R10, 0x00000000)  returns 0x00 (0000ms, 0768ms total)
T3BF0 003:202 JLINK_WriteReg(R11, 0x00000000)  returns 0x00 (0000ms, 0768ms total)
T3BF0 003:202 JLINK_WriteReg(R12, 0x00000000)  returns 0x00 (0000ms, 0768ms total)
T3BF0 003:202 JLINK_WriteReg(R13 (SP), 0x20001000)  returns 0x00 (0000ms, 0768ms total)
T3BF0 003:202 JLINK_WriteReg(R14, 0x20000001)  returns 0x00 (0000ms, 0768ms total)
T3BF0 003:202 JLINK_WriteReg(R15 (PC), 0x20000054)  returns 0x00 (0000ms, 0768ms total)
T3BF0 003:202 JLINK_WriteReg(XPSR, 0x01000000)  returns 0x00 (0000ms, 0768ms total)
T3BF0 003:202 JLINK_WriteReg(MSP, 0x20001000)  returns 0x00 (0000ms, 0768ms total)
T3BF0 003:202 JLINK_WriteReg(PSP, 0x20001000)  returns 0x00 (0000ms, 0768ms total)
T3BF0 003:202 JLINK_WriteReg(CFBP, 0x00000000)  returns 0x00 (0000ms, 0768ms total)
T3BF0 003:202 JLINK_SetBPEx(Addr = 0x20000000, Type = 0xFFFFFFF2) -- CPU_ReadMem(2 bytes @ 0x20000000)  returns 0x0000000B (0001ms, 0769ms total)
T3BF0 003:203 JLINK_Go() -- CPU_WriteMem(2 bytes @ 0x20000000) (0003ms, 0772ms total)
T3BF0 003:206 JLINK_IsHalted() -- CPU_ReadMem(2 bytes @ 0x20000000)  returns TRUE (0004ms, 0776ms total)
T3BF0 003:210 JLINK_ReadReg(R15 (PC))  returns 0x20000000 (0000ms, 0772ms total)
T3BF0 003:210 JLINK_ClrBPEx(BPHandle = 0x0000000B)  returns 0x00 (0000ms, 0772ms total)
T3BF0 003:210 JLINK_ReadReg(R0)  returns 0x00000000 (0000ms, 0772ms total)
T3BF0 003:211 JLINK_WriteMem(0x20000180, 0x0400 Bytes, ...) - Data: C8 46 01 20 35 55 00 08 19 05 00 08 1B 05 00 08 ... -- CPU_WriteMem(1024 bytes @ 0x20000180)  returns 0x400 (0006ms, 0778ms total)
T3BF0 003:217 JLINK_WriteReg(R0, 0x08000000)  returns 0x00 (0000ms, 0778ms total)
T3BF0 003:217 JLINK_WriteReg(R1, 0x00000400)  returns 0x00 (0000ms, 0778ms total)
T3BF0 003:217 JLINK_WriteReg(R2, 0x20000180)  returns 0x00 (0000ms, 0778ms total)
T3BF0 003:217 JLINK_WriteReg(R3, 0x00000000)  returns 0x00 (0000ms, 0778ms total)
T3BF0 003:217 JLINK_WriteReg(R4, 0x00000000)  returns 0x00 (0000ms, 0778ms total)
T3BF0 003:217 JLINK_WriteReg(R5, 0x00000000)  returns 0x00 (0000ms, 0778ms total)
T3BF0 003:217 JLINK_WriteReg(R6, 0x00000000)  returns 0x00 (0000ms, 0778ms total)
T3BF0 003:217 JLINK_WriteReg(R7, 0x00000000)  returns 0x00 (0000ms, 0778ms total)
T3BF0 003:217 JLINK_WriteReg(R8, 0x00000000)  returns 0x00 (0000ms, 0778ms total)
T3BF0 003:217 JLINK_WriteReg(R9, 0x2000017C)  returns 0x00 (0000ms, 0778ms total)
T3BF0 003:217 JLINK_WriteReg(R10, 0x00000000)  returns 0x00 (0000ms, 0778ms total)
T3BF0 003:217 JLINK_WriteReg(R11, 0x00000000)  returns 0x00 (0000ms, 0778ms total)
T3BF0 003:217 JLINK_WriteReg(R12, 0x00000000)  returns 0x00 (0000ms, 0778ms total)
T3BF0 003:217 JLINK_WriteReg(R13 (SP), 0x20001000)  returns 0x00 (0000ms, 0778ms total)
T3BF0 003:217 JLINK_WriteReg(R14, 0x20000001)  returns 0x00 (0000ms, 0778ms total)
T3BF0 003:218 JLINK_WriteReg(R15 (PC), 0x20000108)  returns 0x00 (0000ms, 0779ms total)
T3BF0 003:218 JLINK_WriteReg(XPSR, 0x01000000)  returns 0x00 (0000ms, 0779ms total)
T3BF0 003:218 JLINK_WriteReg(MSP, 0x20001000)  returns 0x00 (0000ms, 0779ms total)
T3BF0 003:218 JLINK_WriteReg(PSP, 0x20001000)  returns 0x00 (0000ms, 0779ms total)
T3BF0 003:218 JLINK_WriteReg(CFBP, 0x00000000)  returns 0x00 (0000ms, 0779ms total)
T3BF0 003:218 JLINK_SetBPEx(Addr = 0x20000000, Type = 0xFFFFFFF2)  returns 0x0000000C (0000ms, 0779ms total)
T3BF0 003:218 JLINK_Go() (0002ms, 0781ms total)
T3BF0 003:220 JLINK_IsHalted()  returns FALSE (0001ms, 0782ms total)
T3BF0 003:444 JLINK_IsHalted() -- CPU_ReadMem(2 bytes @ 0x20000000)  returns TRUE (0004ms, 0785ms total)
T3BF0 003:448 JLINK_ReadReg(R15 (PC))  returns 0x20000000 (0000ms, 0781ms total)
T3BF0 003:448 JLINK_ClrBPEx(BPHandle = 0x0000000C)  returns 0x00 (0000ms, 0781ms total)
T3BF0 003:448 JLINK_ReadReg(R0)  returns 0x00000000 (0000ms, 0781ms total)
T3BF0 003:449 JLINK_WriteMem(0x20000180, 0x0400 Bytes, ...) - Data: 02 90 A7 20 AD F8 04 00 00 20 AD F8 06 00 AD F8 ... -- CPU_WriteMem(1024 bytes @ 0x20000180)  returns 0x400 (0006ms, 0787ms total)
T3BF0 003:455 JLINK_WriteReg(R0, 0x08000400)  returns 0x00 (0000ms, 0787ms total)
T3BF0 003:455 JLINK_WriteReg(R1, 0x00000400)  returns 0x00 (0000ms, 0787ms total)
T3BF0 003:455 JLINK_WriteReg(R2, 0x20000180)  returns 0x00 (0000ms, 0787ms total)
T3BF0 003:455 JLINK_WriteReg(R3, 0x00000000)  returns 0x00 (0000ms, 0787ms total)
T3BF0 003:455 JLINK_WriteReg(R4, 0x00000000)  returns 0x00 (0000ms, 0787ms total)
T3BF0 003:455 JLINK_WriteReg(R5, 0x00000000)  returns 0x00 (0000ms, 0787ms total)
T3BF0 003:455 JLINK_WriteReg(R6, 0x00000000)  returns 0x00 (0000ms, 0787ms total)
T3BF0 003:455 JLINK_WriteReg(R7, 0x00000000)  returns 0x00 (0000ms, 0787ms total)
T3BF0 003:455 JLINK_WriteReg(R8, 0x00000000)  returns 0x00 (0000ms, 0787ms total)
T3BF0 003:455 JLINK_WriteReg(R9, 0x2000017C)  returns 0x00 (0000ms, 0787ms total)
T3BF0 003:455 JLINK_WriteReg(R10, 0x00000000)  returns 0x00 (0000ms, 0787ms total)
T3BF0 003:455 JLINK_WriteReg(R11, 0x00000000)  returns 0x00 (0000ms, 0787ms total)
T3BF0 003:455 JLINK_WriteReg(R12, 0x00000000)  returns 0x00 (0000ms, 0787ms total)
T3BF0 003:455 JLINK_WriteReg(R13 (SP), 0x20001000)  returns 0x00 (0000ms, 0787ms total)
T3BF0 003:455 JLINK_WriteReg(R14, 0x20000001)  returns 0x00 (0000ms, 0787ms total)
T3BF0 003:455 JLINK_WriteReg(R15 (PC), 0x20000108)  returns 0x00 (0000ms, 0787ms total)
T3BF0 003:455 JLINK_WriteReg(XPSR, 0x01000000)  returns 0x00 (0000ms, 0787ms total)
T3BF0 003:455 JLINK_WriteReg(MSP, 0x20001000)  returns 0x00 (0000ms, 0787ms total)
T3BF0 003:455 JLINK_WriteReg(PSP, 0x20001000)  returns 0x00 (0000ms, 0787ms total)
T3BF0 003:455 JLINK_WriteReg(CFBP, 0x00000000)  returns 0x00 (0000ms, 0787ms total)
T3BF0 003:455 JLINK_SetBPEx(Addr = 0x20000000, Type = 0xFFFFFFF2)  returns 0x0000000D (0000ms, 0787ms total)
T3BF0 003:455 JLINK_Go() (0003ms, 0790ms total)
T3BF0 003:458 JLINK_IsHalted()  returns FALSE (0000ms, 0790ms total)
T3BF0 003:678 JLINK_IsHalted() -- CPU_ReadMem(2 bytes @ 0x20000000)  returns TRUE (0003ms, 0793ms total)
T3BF0 003:681 JLINK_ReadReg(R15 (PC))  returns 0x20000000 (0000ms, 0790ms total)
T3BF0 003:681 JLINK_ClrBPEx(BPHandle = 0x0000000D)  returns 0x00 (0000ms, 0790ms total)
T3BF0 003:681 JLINK_ReadReg(R0)  returns 0x00000000 (0000ms, 0790ms total)
T3BF0 003:682 JLINK_WriteMem(0x20000180, 0x0400 Bytes, ...) - Data: 00 0A 1C E0 61 48 90 ED 00 0A DF ED 64 0A B4 EE ... -- CPU_WriteMem(1024 bytes @ 0x20000180)  returns 0x400 (0006ms, 0796ms total)
T3BF0 003:688 JLINK_WriteReg(R0, 0x08000800)  returns 0x00 (0000ms, 0796ms total)
T3BF0 003:688 JLINK_WriteReg(R1, 0x00000400)  returns 0x00 (0000ms, 0796ms total)
T3BF0 003:688 JLINK_WriteReg(R2, 0x20000180)  returns 0x00 (0000ms, 0796ms total)
T3BF0 003:688 JLINK_WriteReg(R3, 0x00000000)  returns 0x00 (0000ms, 0796ms total)
T3BF0 003:688 JLINK_WriteReg(R4, 0x00000000)  returns 0x00 (0000ms, 0796ms total)
T3BF0 003:688 JLINK_WriteReg(R5, 0x00000000)  returns 0x00 (0000ms, 0796ms total)
T3BF0 003:688 JLINK_WriteReg(R6, 0x00000000)  returns 0x00 (0000ms, 0796ms total)
T3BF0 003:688 JLINK_WriteReg(R7, 0x00000000)  returns 0x00 (0000ms, 0796ms total)
T3BF0 003:688 JLINK_WriteReg(R8, 0x00000000)  returns 0x00 (0000ms, 0796ms total)
T3BF0 003:688 JLINK_WriteReg(R9, 0x2000017C)  returns 0x00 (0000ms, 0796ms total)
T3BF0 003:688 JLINK_WriteReg(R10, 0x00000000)  returns 0x00 (0000ms, 0796ms total)
T3BF0 003:688 JLINK_WriteReg(R11, 0x00000000)  returns 0x00 (0000ms, 0796ms total)
T3BF0 003:688 JLINK_WriteReg(R12, 0x00000000)  returns 0x00 (0001ms, 0797ms total)
T3BF0 003:689 JLINK_WriteReg(R13 (SP), 0x20001000)  returns 0x00 (0000ms, 0797ms total)
T3BF0 003:689 JLINK_WriteReg(R14, 0x20000001)  returns 0x00 (0000ms, 0797ms total)
T3BF0 003:689 JLINK_WriteReg(R15 (PC), 0x20000108)  returns 0x00 (0000ms, 0797ms total)
T3BF0 003:689 JLINK_WriteReg(XPSR, 0x01000000)  returns 0x00 (0000ms, 0797ms total)
T3BF0 003:689 JLINK_WriteReg(MSP, 0x20001000)  returns 0x00 (0000ms, 0797ms total)
T3BF0 003:689 JLINK_WriteReg(PSP, 0x20001000)  returns 0x00 (0000ms, 0797ms total)
T3BF0 003:689 JLINK_WriteReg(CFBP, 0x00000000)  returns 0x00 (0000ms, 0797ms total)
T3BF0 003:689 JLINK_SetBPEx(Addr = 0x20000000, Type = 0xFFFFFFF2)  returns 0x0000000E (0000ms, 0797ms total)
T3BF0 003:689 JLINK_Go() (0002ms, 0799ms total)
T3BF0 003:691 JLINK_IsHalted()  returns FALSE (0000ms, 0799ms total)
T3BF0 003:910 JLINK_IsHalted() -- CPU_ReadMem(2 bytes @ 0x20000000)  returns TRUE (0004ms, 0803ms total)
T3BF0 003:914 JLINK_ReadReg(R15 (PC))  returns 0x20000000 (0000ms, 0799ms total)
T3BF0 003:914 JLINK_ClrBPEx(BPHandle = 0x0000000E)  returns 0x00 (0000ms, 0799ms total)
T3BF0 003:914 JLINK_ReadReg(R0)  returns 0x00000000 (0000ms, 0799ms total)
T3BF0 003:915 JLINK_WriteMem(0x20000180, 0x0400 Bytes, ...) - Data: 00 68 3D 49 08 40 37 49 08 60 3C 48 09 1D 08 60 ... -- CPU_WriteMem(1024 bytes @ 0x20000180)  returns 0x400 (0005ms, 0804ms total)
T3BF0 003:920 JLINK_WriteReg(R0, 0x08000C00)  returns 0x00 (0000ms, 0804ms total)
T3BF0 003:920 JLINK_WriteReg(R1, 0x00000400)  returns 0x00 (0000ms, 0804ms total)
T3BF0 003:920 JLINK_WriteReg(R2, 0x20000180)  returns 0x00 (0000ms, 0804ms total)
T3BF0 003:920 JLINK_WriteReg(R3, 0x00000000)  returns 0x00 (0000ms, 0804ms total)
T3BF0 003:920 JLINK_WriteReg(R4, 0x00000000)  returns 0x00 (0000ms, 0804ms total)
T3BF0 003:920 JLINK_WriteReg(R5, 0x00000000)  returns 0x00 (0000ms, 0804ms total)
T3BF0 003:920 JLINK_WriteReg(R6, 0x00000000)  returns 0x00 (0000ms, 0804ms total)
T3BF0 003:920 JLINK_WriteReg(R7, 0x00000000)  returns 0x00 (0000ms, 0804ms total)
T3BF0 003:920 JLINK_WriteReg(R8, 0x00000000)  returns 0x00 (0001ms, 0805ms total)
T3BF0 003:921 JLINK_WriteReg(R9, 0x2000017C)  returns 0x00 (0000ms, 0805ms total)
T3BF0 003:921 JLINK_WriteReg(R10, 0x00000000)  returns 0x00 (0000ms, 0805ms total)
T3BF0 003:921 JLINK_WriteReg(R11, 0x00000000)  returns 0x00 (0000ms, 0805ms total)
T3BF0 003:921 JLINK_WriteReg(R12, 0x00000000)  returns 0x00 (0000ms, 0805ms total)
T3BF0 003:921 JLINK_WriteReg(R13 (SP), 0x20001000)  returns 0x00 (0000ms, 0805ms total)
T3BF0 003:921 JLINK_WriteReg(R14, 0x20000001)  returns 0x00 (0000ms, 0805ms total)
T3BF0 003:921 JLINK_WriteReg(R15 (PC), 0x20000108)  returns 0x00 (0000ms, 0805ms total)
T3BF0 003:921 JLINK_WriteReg(XPSR, 0x01000000)  returns 0x00 (0000ms, 0805ms total)
T3BF0 003:921 JLINK_WriteReg(MSP, 0x20001000)  returns 0x00 (0000ms, 0805ms total)
T3BF0 003:921 JLINK_WriteReg(PSP, 0x20001000)  returns 0x00 (0000ms, 0805ms total)
T3BF0 003:921 JLINK_WriteReg(CFBP, 0x00000000)  returns 0x00 (0000ms, 0805ms total)
T3BF0 003:921 JLINK_SetBPEx(Addr = 0x20000000, Type = 0xFFFFFFF2)  returns 0x0000000F (0000ms, 0805ms total)
T3BF0 003:921 JLINK_Go() (0002ms, 0807ms total)
T3BF0 003:923 JLINK_IsHalted()  returns FALSE (0000ms, 0807ms total)
T3BF0 004:140 JLINK_IsHalted() -- CPU_ReadMem(2 bytes @ 0x20000000)  returns TRUE (0004ms, 0811ms total)
T3BF0 004:144 JLINK_ReadReg(R15 (PC))  returns 0x20000000 (0000ms, 0807ms total)
T3BF0 004:144 JLINK_ClrBPEx(BPHandle = 0x0000000F)  returns 0x00 (0000ms, 0807ms total)
T3BF0 004:144 JLINK_ReadReg(R0)  returns 0x00000000 (0000ms, 0807ms total)
T3BF0 004:145 JLINK_WriteMem(0x20000180, 0x0400 Bytes, ...) - Data: 10 B5 2D ED 04 8B B0 EE 40 8A 18 EE 10 0A 0B F0 ... -- CPU_WriteMem(1024 bytes @ 0x20000180)  returns 0x400 (0006ms, 0813ms total)
T3BF0 004:151 JLINK_WriteReg(R0, 0x08001000)  returns 0x00 (0000ms, 0813ms total)
T3BF0 004:151 JLINK_WriteReg(R1, 0x00000400)  returns 0x00 (0000ms, 0813ms total)
T3BF0 004:151 JLINK_WriteReg(R2, 0x20000180)  returns 0x00 (0000ms, 0813ms total)
T3BF0 004:151 JLINK_WriteReg(R3, 0x00000000)  returns 0x00 (0000ms, 0813ms total)
T3BF0 004:151 JLINK_WriteReg(R4, 0x00000000)  returns 0x00 (0000ms, 0813ms total)
T3BF0 004:151 JLINK_WriteReg(R5, 0x00000000)  returns 0x00 (0000ms, 0813ms total)
T3BF0 004:151 JLINK_WriteReg(R6, 0x00000000)  returns 0x00 (0000ms, 0813ms total)
T3BF0 004:151 JLINK_WriteReg(R7, 0x00000000)  returns 0x00 (0000ms, 0813ms total)
T3BF0 004:151 JLINK_WriteReg(R8, 0x00000000)  returns 0x00 (0000ms, 0813ms total)
T3BF0 004:151 JLINK_WriteReg(R9, 0x2000017C)  returns 0x00 (0000ms, 0813ms total)
T3BF0 004:151 JLINK_WriteReg(R10, 0x00000000)  returns 0x00 (0000ms, 0813ms total)
T3BF0 004:151 JLINK_WriteReg(R11, 0x00000000)  returns 0x00 (0000ms, 0813ms total)
T3BF0 004:151 JLINK_WriteReg(R12, 0x00000000)  returns 0x00 (0000ms, 0813ms total)
T3BF0 004:151 JLINK_WriteReg(R13 (SP), 0x20001000)  returns 0x00 (0000ms, 0813ms total)
T3BF0 004:151 JLINK_WriteReg(R14, 0x20000001)  returns 0x00 (0000ms, 0813ms total)
T3BF0 004:151 JLINK_WriteReg(R15 (PC), 0x20000108)  returns 0x00 (0000ms, 0813ms total)
T3BF0 004:151 JLINK_WriteReg(XPSR, 0x01000000)  returns 0x00 (0000ms, 0813ms total)
T3BF0 004:151 JLINK_WriteReg(MSP, 0x20001000)  returns 0x00 (0000ms, 0813ms total)
T3BF0 004:151 JLINK_WriteReg(PSP, 0x20001000)  returns 0x00 (0000ms, 0813ms total)
T3BF0 004:151 JLINK_WriteReg(CFBP, 0x00000000)  returns 0x00 (0000ms, 0813ms total)
T3BF0 004:151 JLINK_SetBPEx(Addr = 0x20000000, Type = 0xFFFFFFF2)  returns 0x00000010 (0001ms, 0814ms total)
T3BF0 004:152 JLINK_Go() (0001ms, 0815ms total)
T3BF0 004:153 JLINK_IsHalted()  returns FALSE (0001ms, 0816ms total)
T3BF0 004:374 JLINK_IsHalted() -- CPU_ReadMem(2 bytes @ 0x20000000)  returns TRUE (0005ms, 0820ms total)
T3BF0 004:379 JLINK_ReadReg(R15 (PC))  returns 0x20000000 (0000ms, 0815ms total)
T3BF0 004:379 JLINK_ClrBPEx(BPHandle = 0x00000010)  returns 0x00 (0000ms, 0815ms total)
T3BF0 004:379 JLINK_ReadReg(R0)  returns 0x00000000 (0000ms, 0815ms total)
T3BF0 004:380 JLINK_WriteMem(0x20000180, 0x0400 Bytes, ...) - Data: 0F 07 22 48 81 89 B0 1C 81 42 31 DB 00 24 10 E0 ... -- CPU_WriteMem(1024 bytes @ 0x20000180)  returns 0x400 (0005ms, 0820ms total)
T3BF0 004:385 JLINK_WriteReg(R0, 0x08001400)  returns 0x00 (0001ms, 0821ms total)
T3BF0 004:386 JLINK_WriteReg(R1, 0x00000400)  returns 0x00 (0000ms, 0821ms total)
T3BF0 004:386 JLINK_WriteReg(R2, 0x20000180)  returns 0x00 (0000ms, 0821ms total)
T3BF0 004:386 JLINK_WriteReg(R3, 0x00000000)  returns 0x00 (0000ms, 0821ms total)
T3BF0 004:386 JLINK_WriteReg(R4, 0x00000000)  returns 0x00 (0000ms, 0821ms total)
T3BF0 004:386 JLINK_WriteReg(R5, 0x00000000)  returns 0x00 (0000ms, 0821ms total)
T3BF0 004:386 JLINK_WriteReg(R6, 0x00000000)  returns 0x00 (0000ms, 0821ms total)
T3BF0 004:386 JLINK_WriteReg(R7, 0x00000000)  returns 0x00 (0000ms, 0821ms total)
T3BF0 004:386 JLINK_WriteReg(R8, 0x00000000)  returns 0x00 (0000ms, 0821ms total)
T3BF0 004:386 JLINK_WriteReg(R9, 0x2000017C)  returns 0x00 (0000ms, 0821ms total)
T3BF0 004:386 JLINK_WriteReg(R10, 0x00000000)  returns 0x00 (0000ms, 0821ms total)
T3BF0 004:386 JLINK_WriteReg(R11, 0x00000000)  returns 0x00 (0000ms, 0821ms total)
T3BF0 004:386 JLINK_WriteReg(R12, 0x00000000)  returns 0x00 (0000ms, 0821ms total)
T3BF0 004:386 JLINK_WriteReg(R13 (SP), 0x20001000)  returns 0x00 (0000ms, 0821ms total)
T3BF0 004:386 JLINK_WriteReg(R14, 0x20000001)  returns 0x00 (0000ms, 0821ms total)
T3BF0 004:386 JLINK_WriteReg(R15 (PC), 0x20000108)  returns 0x00 (0000ms, 0821ms total)
T3BF0 004:386 JLINK_WriteReg(XPSR, 0x01000000)  returns 0x00 (0000ms, 0821ms total)
T3BF0 004:386 JLINK_WriteReg(MSP, 0x20001000)  returns 0x00 (0000ms, 0821ms total)
T3BF0 004:386 JLINK_WriteReg(PSP, 0x20001000)  returns 0x00 (0000ms, 0821ms total)
T3BF0 004:386 JLINK_WriteReg(CFBP, 0x00000000)  returns 0x00 (0000ms, 0821ms total)
T3BF0 004:386 JLINK_SetBPEx(Addr = 0x20000000, Type = 0xFFFFFFF2)  returns 0x00000011 (0000ms, 0821ms total)
T3BF0 004:386 JLINK_Go() (0002ms, 0823ms total)
T3BF0 004:388 JLINK_IsHalted()  returns FALSE (0001ms, 0824ms total)
T3BF0 004:618 JLINK_IsHalted() -- CPU_ReadMem(2 bytes @ 0x20000000)  returns TRUE (0005ms, 0828ms total)
T3BF0 004:623 JLINK_ReadReg(R15 (PC))  returns 0x20000000 (0000ms, 0823ms total)
T3BF0 004:623 JLINK_ClrBPEx(BPHandle = 0x00000011)  returns 0x00 (0000ms, 0823ms total)
T3BF0 004:623 JLINK_ReadReg(R0)  returns 0x00000000 (0000ms, 0823ms total)
T3BF0 004:624 JLINK_WriteMem(0x20000180, 0x0400 Bytes, ...) - Data: 24 00 01 22 11 46 06 F0 1F FC 24 49 51 F8 24 00 ... -- CPU_WriteMem(1024 bytes @ 0x20000180)  returns 0x400 (0006ms, 0829ms total)
T3BF0 004:630 JLINK_WriteReg(R0, 0x08001800)  returns 0x00 (0000ms, 0829ms total)
T3BF0 004:630 JLINK_WriteReg(R1, 0x00000400)  returns 0x00 (0000ms, 0829ms total)
T3BF0 004:630 JLINK_WriteReg(R2, 0x20000180)  returns 0x00 (0000ms, 0829ms total)
T3BF0 004:630 JLINK_WriteReg(R3, 0x00000000)  returns 0x00 (0000ms, 0829ms total)
T3BF0 004:630 JLINK_WriteReg(R4, 0x00000000)  returns 0x00 (0000ms, 0829ms total)
T3BF0 004:630 JLINK_WriteReg(R5, 0x00000000)  returns 0x00 (0000ms, 0829ms total)
T3BF0 004:630 JLINK_WriteReg(R6, 0x00000000)  returns 0x00 (0000ms, 0829ms total)
